 ****** HSPICE -- K-2015.06-3 win64 (Aug  6 2015) ******                        
  Copyright (c) 1986 - 2021 by Synopsys, Inc. All Rights Reserved.              
  This software and the associated documentation are proprietary
  to Synopsys, Inc. This software may only be used in accordance
  with the terms and conditions of a written license agreement with
  Synopsys, Inc. All other use, reproduction, or distribution of
  this software is strictly prohibited.
  Input File: CS_amp_ac.sp                                                      
  Command line options: D:\Hspice_K-2015.06-3\WIN64\hspice.exe -i CS_amp_ac.sp -o D:\_University\_current\text6_15\CS_amp_ac.lis
  lic:  
  lic: FLEXlm: v11.2.1 
  lic: USER:   Zezzid               HOSTNAME: LAPTOP-NBK8184L 
  lic: HOSTID: "68545a57211d"       PID:      49784 
  lic: Using FLEXlm license file: 
  lic: 27000@LAPTOP-NBK8184L 
  lic: Checkout 1 hspice 
  lic: License/Maintenance for hspice will expire on 30-dec-2030/2029.2029 
  lic: 1(in_use)/99(total) FLOATING license(s) on SERVER 27000@LAPTOP-NBK8184L 
  lic:   
 Init: read install configuration file: D:\Hspice_K-2015.06-3\meta.cfg

 **warning**  runlvl smaller than 5, reset to 5 when accurate turned on
  **warning** (..\models\ms018.mdl:33) Model n18 device geometries will not be checked against the limits set by lmin, lmax, wmin and wmax. To enable this check, add a period(.) to the model name(i.e. enable model selector).

 **warning**  runlvl smaller than 5, reset to 5 when accurate turned on
1****** HSPICE -- K-2015.06-3 win64 (Aug  6 2015) ******                        
 ******  
 .title cs_amp_ac

 ****** circuit name directory
 circuit number to circuit name directory
   number circuitname                     definition         multiplier
        0 main circuit
        1 x1.                             cs_amp             1.00 
1****** HSPICE -- K-2015.06-3 win64 (Aug  6 2015) ******                        
 ******  
 .title cs_amp_ac

 ****** mos   model parameters tnom=  25.000 temp=  25.000 ******
 ***************************************************************************
 ***        model parameters  model name:   0:n18      model type:nmos   ***
 ***************************************************************************

   *** general parameters ***
    deriv=   0.           

   ***  level 49  model parameters  ***

       hspver=    2006.03               level=         49         
      version=       3.24            paramchk=          0         
       apwarn=          1                lite=          0         
       vgslim=          0             binUnit=          2         
       capMod=          3               xpart=          1         
       mobMod=          1              nqsMod=          0         
       stiMod=          0                 elm=          5         
     sfvtflag=          0                 tox=  3.87e-009 meter   
           xj=   1.6e-007 meter       binflag=          0         
         lmin=   1.5e-007 meter          lmax=     1e-005 meter   
         wmin=   1.9e-007 meter          wmax=     0.0001 meter   
         lref=          0 meter          wref=          0 meter   
         lint=1.57571e-008 meter          wint=-1.44505e-009 meter   
        lmult=          1               wmult=          1         
           ll=2.63528e-016                 lln=     1.1206         
           lw=-2.26256e-016                 lwn=       0.92         
          lwl=-2.05767e-022                  wl=-2.36646e-016         
          wln=       1.06                  ww=-3.64097e-014         
          wwn=   0.876847                 wwl=    -4e-021         
          dwg= -5.96e-009 m/V             dwb=   4.5e-009 m/V^1/2 
           xl=   1.8e-008                  xw=          0         
           a0=       0.83                 ags=       0.32 V^-1    
           b0=     6e-008 meter            b1=          0 meter   
         keta=     -0.003 V^-1           voff=     -0.103 V       
        ngate=          0 cm^-3           vbx=          0 V       
          vbm=         -3 V                xt=  1.55e-007 meter   
         vth0=       0.39 V               nch=3.8694e+017 cm^-3   
         nsub=     6e+016 cm^-3           nlx=7.5451e-008 meter   
       gamma1=          0 V^-1/2       gamma2=          0 V^-1/2  
           k1=   0.680104 V^1/2            k2= -0.0499778         
           k3=         10                 k3b=         -3 V^-1    
           w0=5.58201e-007 meter          dvt0=        1.3         
         dvt1=   0.577163                dvt2=  -0.171755 V^-1    
        dvt0w=          0 meter^-1      dvt1w=          0 meter^-1
        dvt2w=          0 V^-1           dsub=        0.4         
         eta0=      0.028                etab=     -0.027 V^-1    
           u0=      0.034 m^2/V/sec         ua= -1.03e-009 m/V     
           ub=2.36667e-018 (m/V)^2          uc=   1.2e-010 V^-1    
         vsat=      82500 m/sec            a1=          0 v^-1    
           a2=       0.99               delta=       0.01 V       
         rdsw=    55.5497 ohm-um         prwg=        0.4 V^-1    
         prwb=      -0.24 V^-1/2           wr=          1         
         pclm=        1.2             pdiblc1=      0.025         
      pdiblc2=     0.0038             pdiblcb=          0 V^-1    
       pscbe1=  3.45e+008 V/m          pscbe2=     1e-006 V/m     
        drout=       0.56                pvag=          0         
      nfactor=       1.25                cdsc=          0 f/m^2   
        cdscb=          0 f/V/m^2       cdscd=     0.0001 f/V/m^2 
          cit=          0 f/m^2        alpha0=1.7754e-008 m/V     
        beta0=    11.1684 V               dlc=   8.5e-009 meter   
          dwc=   4.5e-008 meter           clc=     1e-007 meter   
          cle=        0.6                cgso=   3.7e-010 f/m     
         cgdo=   3.7e-010 f/m            cgbo=8.03054e-010 f/m     
         cgsl=          0 f/m            cgdl=          0 f/m     
       ckappa=        0.6                  cf=          0 f/m     
         acde=       0.64 m/V            moin=         24 V^1/2   
         toxm=  3.87e-009 m            dtoxcv=          0 m       
          vfb (not used)                alpha1=     0.1764 1/V     
         ijth=        0.1 A              noff=     1.2025         
       voffcv=          0                 tcj=   0.000842 1/K     
        tcjsw=   0.000669 1/K          tcjswg=   0.000669 1/K     
          tpb=    0.00147 V/K           tpbsw=   0.000868 V/K     
       tpbswg=   0.000868 V/K             llc=2.63528e-016         
          lwc=-2.26256e-016                lwlc=-2.05767e-022         
          wlc=-2.36646e-016                 wwc=-3.64097e-014         
         wwlc=    -4e-021                tnom=     298.15 K       
          kt1=  -0.257287 V              kt1l=    -1e-009         
          kt2=      -0.04                 ute=      -1.55         
          ua1=  1.76e-009 m/V             ub1=  -2.4e-018 (m/V)^2 
          uc1=    -1e-010 m/V^2            at=      37000 m/s     
          prt=        -55         
          using Berkeley noise model       noiMod=          2         
         noia=8.2282e+019                noib=      13327         
         noic=-2.4937e-014                  em=1.7767e+007         
           ef=      0.818                  af=          1         
           kf=          0              gdsnoi=-1.23457e-029         
          using Berkeley diodes          using ACM 
          acm=        12                 hdif=    2e-007 meter    
         ldif=    7e-008 meter             js= 3.52e-007 amp/m^2  
          jsw=    3e-013 amp/m            xti=      3.25          
           nj=    1.0392                   cj=  0.000968 f/m^2    
           mj=     0.346                   pb=       0.7 V        
         cjsw= 7.95e-011 f/m             mjsw=     0.538          
          php (not used)                  pbsw=         1 V        
       cjgate (not used)                 cjswg= 4.18e-010 f/m      
        mjswg=     0.538                pbswg=         1 V        
        lketa=  -1.7e-009               lvoff=  -3.3e-009         
          lu0=2.30577e-011                 lua=7.73498e-019         
     lnfactor=   4.5e-008                lua1=     6e-018         
         luc1=   1.7e-017             lalpha1= 7.625e-009         
        wvth0=-2.97095e-008                 wk1=-2.48968e-008         
          wu0=-3.10097e-009                wua1=  -1.1e-016         
        pvth0=     5e-016                 pk1=   1.3e-015         
          pua=    -1e-024                 puc=   1.5e-024         
        pvsat=  -8.3e-010               ppclm=     3e-015         
     ppdiblc2=   2.7e-016                pua1=    -5e-025         
         puc1=    -3e-024                 pat=  -7.5e-010         
 

  
      
 **info** set option symb=1 internally to help for convergence.
 *****************************************************************
 ******  option summary
 ******
 runlvl  = 5         bypass  = 2         
  Opening plot unit= 79
 file=D:\_University\_current\text6_15\CS_amp_ac.pa0

 **info** dc convergence successful at Newton-Raphson method 
1****** HSPICE -- K-2015.06-3 win64 (Aug  6 2015) ******                        
 ******  
 .title cs_amp_ac

 ****** operating point information tnom=  25.000 temp=  27.000 ******
 ****** operating point status is all       simulation time is     0.     
    node    =voltage      node    =voltage      node    =voltage

 +0:gnda    =   0.      0:vbias   =  -1.2200  0:vdda    =   1.8000 
 +0:vin     = 500.0000m 0:vout    = 370.6301m 0:vss     =  -1.8000 


 **** voltage sources

 subckt                                                         
 element  0:vgnda    0:vvbias   0:vvdda    0:vvin     0:vvss    
  volts      0.        -1.2200     1.8000   500.0000m   -1.8000 
  current -139.1593m    0.       -40.0262p    0.       139.1593m
  power      0.         0.        72.0472p    0.       250.4867m

     total voltage source power dissipation=  250.4867m       watts




 **** mosfets


 subckt   x1         x1        
 element  1:mm1      1:mm2     
 model    0:n18      0:n18     
 region       Cutoff   Saturati
  id        36.7917p   36.0327p
  ibs     -7.380e-19  139.1593m
  ibd       -5.1389f   -5.6491f
  vgs      129.3699m  580.0000m
  vds        1.4294     2.1706 
  vbs     -370.6301m    1.8000 
  vth      520.4353m  286.8235m
  vdsat     42.9503m   37.0596m
  vod     -391.0654m  293.1765m
  beta     726.4487u  701.1275u
  gam eff  754.9770m  701.5892m
  gm         1.1127n  917.0721p
  gds       23.0864p    7.5359p
  gmb      244.0830p  104.8229p
  cdtot    407.0723a  518.9137a
  cgtot    583.4456a  709.3036a
  cstot    518.9374a  834.2945a
  cbtot    943.0996a    1.2821f
  cgs      141.6032a  355.6685a
  cgd      141.5776a  141.5778a



1****** HSPICE -- K-2015.06-3 win64 (Aug  6 2015) ******                        
 ******  
 .title cs_amp_ac

 ****** noise analysis tnom=  25.000 temp=  27.000 ******

     frequency =  10.0000        hz




 **** mosfet squared noise voltages (sq v/hz)




 element     1:mm1
       rd  2.400e-23    
       rs    0.         
       id    6.1279p    
       rx  719.9960x    
       fn  261.4551p    
    total  267.5830p    




 element     1:mm2
       rd    0.         
       rs  1.136e-22    
       id   12.8240p    
       rx  719.9960x    
       fn  248.8516p    
    total  261.6756p    




 **** total output noise voltage         = 529.2586p       sq v/hz
                                         =  23.0056u       v/rt hz
      transfer function value:
        v(vout)/vvin                     = 801.1606m      
      equivalent input noise at vvin                          
                                         =  28.7154u       /rt hz



 **** the results of the sqrt of integral (v**2 / freq)
      from fstart upto   10.0000       hz. using more freq points
      results in more accurate total noise values.

 **** total output noise voltage   =    0.            volts
 **** total equivalent input noise =    0.           



1****** HSPICE -- K-2015.06-3 win64 (Aug  6 2015) ******                        
 ******  
 .title cs_amp_ac

 ****** noise analysis tnom=  25.000 temp=  27.000 ******

     frequency = 100.0000        hz




 **** mosfet squared noise voltages (sq v/hz)




 element     1:mm1
       rd  1.995e-23    
       rs    0.         
       id    5.0938p    
       rx  656.4357x    
       fn   33.0462p    
    total   38.1400p    




 element     1:mm2
       rd    0.         
       rs  9.446e-23    
       id   10.6598p    
       rx  656.4357x    
       fn   31.4532p    
    total   42.1130p    




 **** total output noise voltage         =  80.2529p       sq v/hz
                                         =   8.9584u       v/rt hz
      transfer function value:
        v(vout)/vvin                     = 730.4352m      
      equivalent input noise at vvin                          
                                         =  12.2645u       /rt hz



 **** the results of the sqrt of integral (v**2 / freq)
      from fstart upto  100.0000       hz. using more freq points
      results in more accurate total noise values.

 **** total output noise voltage   =  125.1280u       volts
 **** total equivalent input noise =  159.8331u      



1****** HSPICE -- K-2015.06-3 win64 (Aug  6 2015) ******                        
 ******  
 .title cs_amp_ac

 ****** noise analysis tnom=  25.000 temp=  27.000 ******

     frequency =   1.0000k       hz




 **** mosfet squared noise voltages (sq v/hz)




 element     1:mm1
       rd  1.116e-24    
       rs  1.265e-20    
       id  284.9433f    
       rx  155.2573x    
       fn  281.0870f    
    total  566.0303f    




 element     1:mm2
       rd    0.         
       rs  5.284e-24    
       id  596.3029f    
       rx  155.2573x    
       fn  267.5372f    
    total  863.8401f    




 **** total output noise voltage         =   1.4299p       sq v/hz
                                         =   1.1958u       v/rt hz
      transfer function value:
        v(vout)/vvin                     = 172.7594m      
      equivalent input noise at vvin                          
                                         =   6.9216u       /rt hz



 **** the results of the sqrt of integral (v**2 / freq)
      from fstart upto    1.0000k      hz. using more freq points
      results in more accurate total noise values.

 **** total output noise voltage   =  165.4569u       volts
 **** total equivalent input noise =  294.8301u      



1****** HSPICE -- K-2015.06-3 win64 (Aug  6 2015) ******                        
 ******  
 .title cs_amp_ac

 ****** noise analysis tnom=  25.000 temp=  27.000 ******

     frequency =  10.0000k       hz




 **** mosfet squared noise voltages (sq v/hz)




 element     1:mm1
       rd  1.170e-26    
       rs  3.163e-21    
       id    2.9866f    
       rx   15.8951x    
       fn  447.9864a    
    total    3.4346f    




 element     1:mm2
       rd    0.         
       rs  5.538e-26    
       id    6.2502f    
       rx   15.8951x    
       fn  426.3913a    
    total    6.6766f    




 **** total output noise voltage         =  10.1112f       sq v/hz
                                         = 100.5544n       v/rt hz
      transfer function value:
        v(vout)/vvin                     =  17.6875m      
      equivalent input noise at vvin                          
                                         =   5.6850u       /rt hz



 **** the results of the sqrt of integral (v**2 / freq)
      from fstart upto   10.0000k      hz. using more freq points
      results in more accurate total noise values.

 **** total output noise voltage   =  168.9160u       volts
 **** total equivalent input noise =  636.8508u      



1****** HSPICE -- K-2015.06-3 win64 (Aug  6 2015) ******                        
 ******  
 .title cs_amp_ac

 ****** noise analysis tnom=  25.000 temp=  27.000 ******

     frequency = 100.0000k       hz




 **** mosfet squared noise voltages (sq v/hz)




 element     1:mm1
       rd  1.170e-28    
       rs  2.281e-26    
       id   29.8808a    
       rx    1.5899x    
       fn  6.815e-19    
    total   30.5623a    




 element     1:mm2
       rd  2.281e-26    
       rs  5.541e-28    
       id   62.5317a    
       rx    1.5899x    
       fn  6.487e-19    
    total   63.1804a    




 **** total output noise voltage         =  93.7426a       sq v/hz
                                         =   9.6821n       v/rt hz
      transfer function value:
        v(vout)/vvin                     =   1.7748m      
      equivalent input noise at vvin                          
                                         =   5.4554u       /rt hz



 **** the results of the sqrt of integral (v**2 / freq)
      from fstart upto  100.0000k      hz. using more freq points
      results in more accurate total noise values.

 **** total output noise voltage   =  169.1832u       volts
 **** total equivalent input noise =    1.7712m      



1****** HSPICE -- K-2015.06-3 win64 (Aug  6 2015) ******                        
 ******  
 .title cs_amp_ac

 ****** noise analysis tnom=  25.000 temp=  27.000 ******

     frequency =   1.0000x       hz




 **** mosfet squared noise voltages (sq v/hz)




 element     1:mm1
       rd    0.         
       rs  2.334e-26    
       id  2.988e-19    
       rx  158.9899k    
       fn  1.036e-21    
    total  2.998e-19    




 element     1:mm2
       rd  2.334e-26    
       rs    0.         
       id  6.253e-19    
       rx  158.9899k    
       fn  9.863e-22    
    total  6.263e-19    




 **** total output noise voltage         = 9.262e-19       sq v/hz
                                         = 962.3678p       v/rt hz
      transfer function value:
        v(vout)/vvin                     = 226.5088u      
      equivalent input noise at vvin                          
                                         =   4.2487u       /rt hz



 **** the results of the sqrt of integral (v**2 / freq)
      from fstart upto    1.0000x      hz. using more freq points
      results in more accurate total noise values.

 **** total output noise voltage   =  169.2087u       volts
 **** total equivalent input noise =    5.0204m      



1****** HSPICE -- K-2015.06-3 win64 (Aug  6 2015) ******                        
 ******  
 .title cs_amp_ac

 ****** noise analysis tnom=  25.000 temp=  27.000 ******

     frequency =  10.0000x       hz




 **** mosfet squared noise voltages (sq v/hz)




 element     1:mm1
       rd    0.         
       rs  2.334e-26    
       id  2.988e-21    
       rx   15.8990k    
       fn  1.576e-24    
    total  2.990e-21    




 element     1:mm2
       rd  2.334e-26    
       rs    0.         
       id  6.253e-21    
       rx   15.8990k    
       fn  1.500e-24    
    total  6.255e-21    




 **** total output noise voltage         = 9.244e-21       sq v/hz
                                         =  96.1479p       v/rt hz
      transfer function value:
        v(vout)/vvin                     = 142.5520u      
      equivalent input noise at vvin                          
                                         = 674.4757n       /rt hz



 **** the results of the sqrt of integral (v**2 / freq)
      from fstart upto   10.0000x      hz. using more freq points
      results in more accurate total noise values.

 **** total output noise voltage   =  169.2112u       volts
 **** total equivalent input noise =    7.3580m      



1****** HSPICE -- K-2015.06-3 win64 (Aug  6 2015) ******                        
 ******  
 .title cs_amp_ac

 ****** noise analysis tnom=  25.000 temp=  27.000 ******

     frequency = 100.0000x       hz




 **** mosfet squared noise voltages (sq v/hz)




 element     1:mm1
       rd    0.         
       rs  2.334e-26    
